reg 0x00: 0xad
reg 0x01: 0x1d
reg 0x02: 0xf2
reg 0x03: 0x02
reg 0x04: 0x52
reg 0x05: 0x00
reg 0x06: 0x00
reg 0x07: 0x00
reg 0x08: 0x00
reg 0x09: 0x00
reg 0x0a: 0x00
reg 0x0b: 0xc0
reg 0x0c: 0x00
reg 0x0d: 0x00
reg 0x0e: 0x00
reg 0x0f: 0x00
reg 0x10: 0x00
reg 0x11: 0x00
reg 0x12: 0x00
reg 0x13: 0x00
reg 0x14: 0x00
reg 0x15: 0x00
reg 0x16: 0x00
reg 0x17: 0x00
reg 0x18: 0x00
reg 0x19: 0x00
reg 0x1a: 0x00
reg 0x1b: 0x00
reg 0x1c: 0x00
reg 0x1d: 0x00
reg 0x1e: 0x00
reg 0x1f: 0x00
reg 0x20: 0x00
reg 0x21: 0x00
reg 0x22: 0x00
reg 0x23: 0x00
reg 0x24: 0x00
reg 0x25: 0x00
reg 0x26: 0x00
reg 0x27: 0x00
reg 0x28: 0x00
reg 0x29: 0x80
reg 0x2a: 0x00
reg 0x2b: 0x00
reg 0x2c: 0x13
reg 0x2d: 0x00
reg 0x2e: 0x00
reg 0x2f: 0x00
reg 0x30: 0x00
reg 0x31: 0x00
reg 0x32: 0x00
reg 0x33: 0x00
reg 0x34: 0x00
reg 0x35: 0x00
reg 0x36: 0x00
reg 0x37: 0x00
reg 0x38: 0x00
reg 0x39: 0x00
reg 0x3a: 0x00
reg 0x3b: 0x00
reg 0x3c: 0x00
reg 0x3d: 0x00
reg 0x3e: 0x00
reg 0x3f: 0x00

